! created by david at Fri Dec 20 17:22:43 COT 2019
! generated using vna/J Version 3.3.2
# Hz S DB R 50
001000000 -0.02824984 -5.45802615
003960512 0.00000000 -9.33144100
006921024 0.00000000 -13.13095186
009881536 0.00000000 -16.84209448
012842048 -0.01140786 -20.56642347
015802560 -0.10123687 -24.08762760
018763072 -0.10808504 -27.41077590
021723584 -0.12898323 -31.17463605
024684096 -0.20225608 -35.31260553
027644608 -0.31775504 -38.91260098
030605120 -0.43972075 -42.11949622
033565632 -0.47341451 -44.93480081
036526144 -0.41774470 -48.18932807
039486656 -0.34981752 -51.82161943
042447168 -0.30827925 -55.87815098
045407680 -0.28600572 -60.00933230
048368192 -0.26617617 -63.89118470
051328704 -0.25027126 -68.11430399
054289216 -0.26781811 -72.21451856
057249728 -0.28993947 -76.40941712
060210240 -0.32873634 -80.57761298
063170752 -0.37935877 -84.88539438
066131264 -0.48985036 -89.10168094
069091776 -0.66534511 -93.08486304
072052288 -0.94301160 -96.35978546
075012800 -1.11459610 -97.76082393
077973312 -0.95779391 -99.92361734
080933824 -0.83223256 -103.33978975
083894336 -0.82382587 -107.36900541
086854848 -1.01127057 -111.05273545
089815360 -1.10125640 -112.75740256
092775872 -0.92910708 -115.56783099
095736384 -0.83649156 -119.07406310
098696896 -0.75069020 -123.21171995
101657408 -0.83871827 -127.54574576
104617920 -0.95749974 -131.35696886
107578432 -1.11974788 -135.03371469
110538944 -1.17853901 -138.23891178
113499456 -1.27813887 -142.15431772
116459968 -1.47742622 -145.82425304
119420480 -1.63333338 -148.55739304
122380992 -1.67995241 -151.12018786
125341504 -1.68052122 -154.44809947
128302016 -1.72422432 -157.90542302
131262528 -1.75521530 -161.31555489
134223040 -1.80717198 -164.52499540
137183552 -1.71698636 -168.11324222
140144064 -1.72988991 -172.93045173
143104576 -1.87672623 -177.31852092
146065088 -2.07478726 178.48669821
149025600 -2.34042948 175.07021459
151986112 -2.55318585 171.95740514
154946624 -2.81217151 169.43546707
157907136 -2.96114292 167.49516804
160867648 -2.91671188 165.61757777
163828160 -2.83778438 162.06452037
166788672 -2.90781739 158.08584698
169749184 -3.11233183 154.37342729
172709696 -3.26965079 151.00959692
175670208 -3.53654385 147.20423537
178630720 -3.82914906 144.06205898
181591232 -4.31178430 140.63579116
184551744 -4.92667277 139.34829845
187512256 -5.39070097 141.08947978
190472768 -5.16893276 142.27276771
193433280 -5.01211381 140.43489471
196393792 -5.18059666 139.34823023
199354304 -5.12857539 140.85599025
202314816 -4.55895510 140.58784787
205275328 -4.05913137 138.10573043
208235840 -3.71516679 134.72702670
211196352 -3.48810276 131.58187518
214156864 -3.16655514 129.14948422
217117376 -2.69463913 125.22413738
220077888 -2.43065610 119.59920743
223038400 -2.38466313 114.60217835
225998912 -2.30565877 110.23460550
228959424 -2.23809906 105.88556256
231919936 -2.19682289 101.56430953
234880448 -2.24376793 97.37137296
237840960 -2.27384145 93.34727290
240801472 -2.35589899 90.14854050
243761984 -2.29321879 87.41105812
246722496 -2.17666723 83.96547551
249683008 -2.12706784 79.99259393
252643520 -2.13534806 76.49384427
255604032 -2.11458275 73.11334658
258564544 -2.11950922 69.51029782
261525056 -2.12915734 66.04501305
264485568 -2.20208351 62.66233375
267446080 -2.28510069 60.08362882
270406592 -2.24114666 57.78032299
273367104 -2.12505438 54.79289424
276327616 -2.02505238 51.47569994
279288128 -1.92102622 48.12667314
282248640 -1.82115912 44.19030793
285209152 -1.79128865 40.05231670
288169664 -1.78819157 36.13336617
291130176 -1.78837182 32.32489699
294090688 -1.82391707 28.30852729
297051200 -1.85836864 24.58479377
300011712 -1.85834407 20.75565680
302972224 -1.82604184 16.92944777
305932736 -1.82612815 12.57369883
308893248 -1.86078353 8.24265549
311853760 -1.93555225 4.19083204
314814272 -2.02069784 0.13666667
317774784 -2.13054594 -3.80037326
320735296 -2.21734034 -7.42234098
323695808 -2.26721053 -10.87279323
326656320 -2.33721453 -14.42818680
329616832 -2.38757504 -17.85836101
332577344 -2.43390111 -21.33881840
335537856 -2.44826606 -24.72868119
338498368 -2.44180466 -28.41036027
341458880 -2.44258976 -32.34374628
344419392 -2.46217586 -36.37148123
347379904 -2.53743331 -40.98169371
350340416 -2.69652116 -45.73772246
353300928 -2.99490862 -50.23038241
356261440 -3.33663128 -54.00814557
359221952 -3.65928145 -57.31286350
362182464 -3.94901276 -60.15660014
365142976 -4.18253635 -63.38123483
368103488 -4.56231751 -66.55970073
371064000 -4.90982302 -68.73440712
374024512 -5.23873014 -70.54357937
376985024 -5.54777718 -72.19759462
379945536 -5.84013177 -72.70046709
382906048 -5.99111905 -72.44524277
385866560 -5.95280158 -72.07309545
388827072 -5.72479892 -71.84287224
391787584 -5.29508161 -72.21772827
394748096 -4.85560729 -74.54811049
397708608 -4.41752594 -77.61084638
400669120 -4.02048526 -81.37999336
403629632 -3.70719206 -85.47685292
406590144 -3.48455609 -89.67670493
409550656 -3.30547807 -94.19950025
412511168 -3.11935485 -98.38919108
415471680 -2.97095623 -102.80746385
418432192 -2.86338211 -107.21217643
421392704 -2.78328211 -111.65855265
424353216 -2.74871311 -115.88431842
427313728 -2.75368186 -120.18201077
430274240 -2.76680707 -124.15531998
433234752 -2.83625301 -128.10055200
436195264 -2.93264845 -131.64863563
439155776 -3.01511342 -135.14152688
442116288 -3.12641392 -138.37203415
445076800 -3.26119859 -141.57469004
448037312 -3.39821516 -144.42070706
450997824 -3.50950950 -147.09909257
453958336 -3.64031954 -149.36478224
456918848 -3.73378449 -151.19285996
459879360 -3.73916257 -152.75136302
462839872 -3.67469364 -154.48870193
465800384 -3.50160589 -156.38580326
468760896 -3.27885745 -158.74643312
471721408 -3.04722063 -161.61816747
474681920 -2.81177373 -164.94560481
477642432 -2.61683630 -168.42261973
480602944 -2.44106871 -172.22010326
483563456 -2.27458749 -176.02397863
486523968 -2.11922008 179.79340523
489484480 -2.00965629 175.54195682
492444992 -1.90630609 171.11536268
495405504 -1.85252071 166.70948954
498366016 -1.79533716 162.55452661
501326528 -1.79066255 157.86257353
504287040 -1.85590680 153.30352961
507247552 -2.01184115 148.70279819
510208064 -2.28765434 144.46177198
513168576 -2.70121158 141.14506861
516129088 -3.11402563 139.67374335
519089600 -3.29088254 139.61671911
522050112 -3.16390115 139.46045708
525010624 -2.89612435 138.02129830
527971136 -2.62231337 135.42922988
530931648 -2.38094260 132.22881211
533892160 -2.19754134 128.72127762
536852672 -2.07995648 125.03360665
539813184 -2.00578443 121.40130706
542773696 -1.93220506 117.59515002
545734208 -1.87739932 113.75867323
548694720 -1.85024917 109.82175505
551655232 -1.80452460 106.22690017
554615744 -1.77152191 102.36418089
557576256 -1.76033604 98.92549208
560536768 -1.73579659 95.02592045
563497280 -1.72538890 91.20427877
566457792 -1.69836645 87.57311012
569418304 -1.67308474 83.86272003
572378816 -1.67082942 80.31469427
575339328 -1.63652146 76.71407071
578299840 -1.60176615 73.10148549
581260352 -1.55170161 69.49782781
584220864 -1.53471203 65.91130267
587181376 -1.52450747 62.48981186
590141888 -1.53638217 59.11037443
593102400 -1.48438084 55.60940346
596062912 -1.45337771 52.08852017
599023424 -1.44401179 48.88252358
601983936 -1.38789661 45.32203547
604944448 -1.37877562 41.84667509
607904960 -1.35925542 38.39739984
610865472 -1.35287060 34.91154358
613825984 -1.35681799 31.36278965
616786496 -1.36455335 27.90545476
619747008 -1.40048851 24.31256946
622707520 -1.41222007 20.60550937
625668032 -1.43386628 17.19822740
628628544 -1.46743725 13.46159428
631589056 -1.51099275 9.93651509
634549568 -1.57505219 6.29384802
637510080 -1.61984016 2.45880582
640470592 -1.69335411 -1.39640652
643431104 -1.78289451 -4.96175322
646391616 -1.88641563 -8.69594752
649352128 -1.99288524 -12.05935440
652312640 -2.11834576 -15.02131415
655273152 -2.14921775 -17.48458645
658233664 -2.04183856 -20.23702112
661194176 -1.92822256 -23.44646732
664154688 -1.84706062 -27.31753302
667115200 -1.76021365 -31.35288870
670075712 -1.79998006 -35.27195795
673036224 -1.82298565 -39.33764497
675996736 -1.82554628 -43.02724059
678957248 -1.89361983 -46.74872188
681917760 -1.99448411 -50.44882777
684878272 -2.05248265 -53.92637225
687838784 -2.14159113 -57.33734633
690799296 -2.26013850 -60.37267599
693759808 -2.34172272 -63.26977475
696720320 -2.33598117 -66.12477494
699680832 -2.32069731 -69.56332231
702641344 -2.30798673 -73.37032722
705601856 -2.45252364 -77.42700486
708562368 -2.63162872 -81.45714908
711522880 -2.85530242 -84.74734661
714483392 -3.07314855 -87.78385890
717443904 -3.27857714 -90.48052287
720404416 -3.46103834 -93.13736510
723364928 -3.60564016 -95.51269541
726325440 -3.75997428 -97.66372686
729285952 -3.81999485 -99.67480055
732246464 -3.84820484 -101.77435100
735206976 -3.85520742 -103.65151940
738167488 -3.81366414 -105.96271202
741128000 -3.73372363 -108.31613827
744088512 -3.65806113 -110.77587417
747049024 -3.52808212 -113.43730947
750009536 -3.36159966 -116.11076515
752970048 -3.18746497 -119.22422936
755930560 -3.03284314 -122.49373760
758891072 -2.92524674 -125.60946493
761851584 -2.78137459 -128.97898731
764812096 -2.67787927 -132.39723039
767772608 -2.58882344 -135.67889693
770733120 -2.50635479 -139.12107914
773693632 -2.39451291 -142.37235883
776654144 -2.32612375 -145.69713034
779614656 -2.24960873 -148.92472289
782575168 -2.17874718 -152.29100053
785535680 -2.11958102 -155.53535708
788496192 -2.06988256 -158.84059068
791456704 -2.02854178 -161.86498752
794417216 -1.98734549 -165.36158394
797377728 -1.94670130 -168.61537082
800338240 -1.90224457 -171.91132125
803298752 -1.89093205 -175.08683571
806259264 -1.83442958 -178.53116983
809219776 -1.80941682 178.07490727
812180288 -1.78989430 174.61819160
815140800 -1.75312948 171.18160218
818101312 -1.74067534 167.74082822
821061824 -1.70689340 164.35910640
824022336 -1.68672260 160.91145152
826982848 -1.67699817 157.46336297
829943360 -1.65471672 154.18959291
832903872 -1.62775382 150.81007058
835864384 -1.59744046 147.49980142
838824896 -1.58129962 144.19471153
841785408 -1.57025980 141.13241537
844745920 -1.54393105 137.90327231
847706432 -1.52791303 134.78756910
850666944 -1.51330354 131.57572273
853627456 -1.51329644 128.49166622
856587968 -1.50847573 125.45885409
859548480 -1.48264666 122.47095775
862508992 -1.48816341 119.38805558
865469504 -1.50851341 116.44252418
868430016 -1.50230849 113.41796267
871390528 -1.53592261 110.48190925
874351040 -1.53879409 107.38953088
877311552 -1.54299026 104.29286537
880272064 -1.55988646 101.16424744
883232576 -1.61123931 97.86474779
886193088 -1.62327665 94.92591508
889153600 -1.64200117 91.65765356
892114112 -1.67109319 88.32258009
895074624 -1.70551968 85.18403077
898035136 -1.70948681 81.94494666
900995648 -1.73719416 78.72272028
903956160 -1.76263592 75.37987382
906916672 -1.76792784 71.99007613
909877184 -1.74590138 68.70112078
912837696 -1.77992272 65.39956504
915798208 -1.77760193 61.93049952
918758720 -1.75303891 58.83219681
921719232 -1.73474833 55.65918609
924679744 -1.68959925 52.29789245
927640256 -1.69275390 48.95645331
930600768 -1.63261177 45.76161033
933561280 -1.63939687 42.49832068
936521792 -1.61082582 39.05596903
939482304 -1.56824052 35.82456897
942442816 -1.55391635 32.82962670
945403328 -1.53219715 29.27064471
948363840 -1.52155912 26.21565105
951324352 -1.51150476 22.89869491
954284864 -1.48796594 19.42563140
957245376 -1.44695211 16.10335792
960205888 -1.42890123 12.76813303
963166400 -1.42502965 9.56740137
966126912 -1.41944784 6.37593653
969087424 -1.42934611 2.75604043
972047936 -1.40463551 -0.53575342
975008448 -1.39860518 -4.07635018
977968960 -1.41357691 -7.61766724
980929472 -1.40305812 -11.10532677
983889984 -1.37652121 -14.65138057
986850496 -1.39620111 -18.11896578
989811008 -1.38669545 -21.86896462
992771520 -1.36124720 -25.53931404
995732032 -1.35038728 -29.09632641
998692544 -1.35049545 -32.90589721
1001653056 -1.28476857 -36.47360305
1004613568 -1.24271814 -40.30981289
1007574080 -1.25360530 -43.78391344
1010534592 -1.22331281 -47.49322764
1013495104 -1.22075258 -51.23718280
1016455616 -1.19455289 -54.94490383
1019416128 -1.15344851 -58.49860955
1022376640 -1.14097083 -62.23299466
1025337152 -1.11738486 -65.86120303
1028297664 -1.08980255 -69.68479427
1031258176 -1.07966801 -72.82352648
1034218688 -1.07412401 -76.49074287
1037179200 -1.06371759 -80.15449078
1040139712 -1.08023485 -83.60652194
1043100224 -1.02578045 -80.93099662
1046060736 -0.34643489 -125.95995993
1049021248 -1.04351449 -135.47879591
1051981760 -1.17032012 -99.35655111
1054942272 -1.17487225 -102.89638773
1057902784 -1.17464449 -106.43843841
1060863296 -1.18404843 -110.04112005
1063823808 -1.19059930 -113.71777146
1066784320 -1.23459371 -117.15512446
1069744832 -1.22416259 -120.65840526
1072705344 -1.24439191 -123.99675130
1075665856 -1.28770972 -127.56088315
1078626368 -1.30688185 -131.03163321
1081586880 -1.35059176 -134.57793671
1084547392 -1.37308018 -137.99654064
1087507904 -1.43812589 -141.63233086
1090468416 -1.44161631 -145.10143721
1093428928 -1.52002410 -148.54379232
1096389440 -1.54998746 -151.91773625
1099349952 -1.57404649 -155.49514597
1102310464 -1.60540148 -158.87285185
1105270976 -1.63894475 -162.47834404
1108231488 -1.65840625 -165.94479109
1111192000 -1.70726851 -169.27049266
1114152512 -1.71847948 -172.81312639
1117113024 -1.73059189 -176.11507758
1120073536 -1.77342664 -179.43373587
1123034048 -1.77338814 177.33769494
1125994560 -1.80215265 174.00071157
1128955072 -1.82246288 170.75350056
1131915584 -1.84613519 167.41272311
1134876096 -1.85530017 164.65350868
1137836608 -1.90337194 161.36627380
1140797120 -1.92116993 158.28445087
1143757632 -1.97605920 155.04451329
1146718144 -1.99727164 152.05895713
1149678656 -2.02267187 148.70028285
1152639168 -2.06808338 145.68263695
1155599680 -2.11732412 142.71651051
1158560192 -2.14940254 139.66529423
1161520704 -2.19197639 136.66795638
1164481216 -2.22337594 133.51632206
1167441728 -2.26104853 130.04701220
1170402240 -2.31296193 126.96125536
1173362752 -2.39272719 123.89158331
1176323264 -2.43682696 120.77725292
1179283776 -2.47594518 117.69405231
1182244288 -2.48359540 114.37418808
1185204800 -2.56578694 111.28849639
1188165312 -2.56702618 107.82808733
1191125824 -2.62105162 104.74604800
1194086336 -2.62117137 101.52276379
1197046848 -2.67115756 98.22103395
1200007360 -2.67020834 95.02464536
1202967872 -2.72904088 91.71498719
1205928384 -2.68042145 88.65584721
1208888896 -2.75819597 85.78591434
1211849408 -2.73948291 82.91971059
1214809920 -2.75054408 79.46093937
1217770432 -2.76236913 76.71285998
1220730944 -2.68315304 73.56050232
1223691456 -2.72192471 70.83431149
1226651968 -2.72428477 67.58387711
1229612480 -2.75262190 64.42488433
1232572992 -2.79355108 61.50550145
1235533504 -2.80836617 58.75415508
1238494016 -2.78671656 55.60654467
1241454528 -2.83805261 52.51724566
1244415040 -2.84997425 49.54646723
1247375552 -2.84226261 46.62934449
1250336064 -2.90990938 43.69986872
1253296576 -2.91323997 40.72676004
1256257088 -2.99593254 37.67961209
1259217600 -3.00937186 34.48040846
1262178112 -3.08323750 31.47563556
1265138624 -3.11255567 28.22338198
1268099136 -3.13560107 25.45288644
1271059648 -3.17931376 22.01330044
1274020160 -3.26166048 19.10480912
1276980672 -3.29735421 15.58950145
1279941184 -3.35313788 12.44566284
1282901696 -3.39451483 9.24234452
1285862208 -3.44148114 6.14414883
1288822720 -3.48003142 2.67299097
1291783232 -3.50630705 -0.60618211
1294743744 -3.50506767 -3.80685657
1297704256 -3.51951670 -6.76813321
1300664768 -3.56709680 -10.28173682
1303625280 -3.54797951 -13.50169970
1306585792 -3.61913898 -16.57805353
1309546304 -3.61968359 -19.52144838
1312506816 -3.64040145 -22.84871716
1315467328 -3.66362337 -26.00384675
1318427840 -3.71896330 -29.07326408
1321388352 -3.71119910 -32.29998653
1324348864 -3.76585985 -35.40068940
1327309376 -3.84886230 -38.39341096
1330269888 -3.82939754 -41.41866728
1333230400 -3.90539558 -44.66654813
1336190912 -3.93029795 -47.75890862
1339151424 -3.99517560 -50.68216626
1342111936 -4.03093366 -53.84884214
1345072448 -4.11588857 -56.82448677
1348032960 -4.12893725 -59.85432543
1350993472 -4.10310711 -63.23950234
1353953984 -4.10901550 -66.14653805
1356914496 -4.12971900 -69.40356893
1359875008 -4.09562136 -72.66076600
1362835520 -4.07319298 -76.09488118
1365796032 -4.05303010 -79.12108830
1368756544 -4.08185725 -81.97326427
1371717056 -4.00635639 -85.53144121
1374677568 -3.93181286 -88.84197197
1377638080 -3.86197987 -92.01336070
1380598592 -3.83185720 -94.90561847
1383559104 -3.77501731 -98.26308344
1386519616 -3.64265541 -101.27470896
1389480128 -3.62564847 -104.53885486
1392440640 -3.52844600 -107.42674835
1395401152 -3.55095538 -110.54082340
1398361664 -3.47992724 -113.60692032
1401322176 -3.40638404 -116.74157513
1404282688 -3.31207477 -120.05213780
1407243200 -3.31205342 -122.94234048
1410203712 -3.19943035 -126.11351465
1413164224 -3.11045706 -129.38540278
1416124736 -3.13578576 -132.49376106
1419085248 -3.06706684 -135.87093257
1422045760 -3.01609876 -138.79167021
1425006272 -3.00581599 -141.99285914
1427966784 -2.99750077 -145.22649696
1430927296 -2.93157196 -148.28035322
1433887808 -2.88708131 -151.65747564
1436848320 -2.92767167 -154.57707612
1439808832 -2.85580262 -158.22266820
1442769344 -2.78107916 -161.61102718
1445729856 -2.77728958 -164.88471297
1448690368 -2.74976479 -167.80674935
1451650880 -2.80656685 -171.45451980
1454611392 -2.79514153 -174.43725841
1457571904 -2.77273760 -177.94339056
1460532416 -2.73891639 179.11346501
1463492928 -2.70812807 176.03541143
1466453440 -2.67762639 172.82048940
1469413952 -2.63144208 169.58496783
1472374464 -2.65123631 167.00887264
1475334976 -2.62448547 163.40906579
1478295488 -2.65093480 160.24489707
1481256000 -2.64189002 157.78784685
1484216512 -2.61175159 154.20557841
1487177024 -2.53917245 151.38840316
1490137536 -2.57238585 148.41205614
1493098048 -2.62916075 145.60085132
1496058560 -2.65141455 142.29145913
1499019072 -2.59914802 139.70347992
1501979584 -2.66381090 136.86787389
1504940096 -2.64997511 134.10232078
1507900608 -2.69616150 130.66581775
1510861120 -2.71890474 128.36949490
1513821632 -2.72120069 125.25483006
1516782144 -2.76038012 122.37512258
1519742656 -2.74045101 119.25816047
1522703168 -2.60037186 122.37609699
1525663680 -11.97250689 70.76670029
1528624192 -24.59854892 70.01910810
1531584704 -2.85946168 109.00862966
1534545216 -2.87760176 106.31228121
1537505728 -2.87907398 103.66465004
1540466240 -2.88531528 101.12895648
1543426752 -2.89902536 98.27378437
1546387264 -2.92984511 95.83730642
1549347776 -2.96719245 93.04548076
1552308288 -2.97511225 90.20803937
1555268800 -2.99242763 87.25979684
1558229312 -3.03959227 84.33918887
1561189824 -3.04457877 81.42240114
1564150336 -3.06906315 78.32968045
1567110848 -3.10675727 75.41774725
1570071360 -3.09770375 72.26341454
1573031872 -3.11362767 69.13028853
1575992384 -3.11378648 65.81053632
1578952896 -3.10501887 62.70244665
1581913408 -3.11414338 59.39754178
1584873920 -3.08877382 56.38731523
1587834432 -3.08070123 52.99432820
1590794944 -3.02752880 49.75478799
1593755456 -3.00696912 46.52915711
1596715968 -2.97653797 43.24790501
1599676480 -2.93369673 40.15185390
1602636992 -2.87558506 36.91333641
1605597504 -2.84585505 33.78274625
1608558016 -2.79064456 30.66107021
1611518528 -2.76962610 27.50424975
1614479040 -2.72352964 24.31152893
1617439552 -2.67672851 21.14767326
1620400064 -2.65156764 18.05184137
1623360576 -2.62623071 14.82811892
1626321088 -2.59868887 11.59997200
1629281600 -2.59048881 8.33632085
1632242112 -2.57652898 4.99381281
1635202624 -2.54822799 1.53044673
1638163136 -2.52866335 -1.92776497
1641123648 -2.51019616 -5.48972001
1644084160 -2.49306060 -9.01179565
1647044672 -2.46890474 -12.62591304
1650005184 -2.42908520 -16.32783354
1652965696 -2.39118774 -19.92960423
1655926208 -2.36480211 -23.63491494
1658886720 -2.31468237 -27.36593273
1661847232 -2.25100759 -31.08835930
1664807744 -2.21063632 -34.66798708
